T4750 490:526.353   SEGGER J-Link V6.70c Log File
T4750 490:526.414   DLL Compiled: Apr  7 2020 16:25:12
T4750 490:526.425   Logging started @ 2020-12-20 11:00
T4750 490:526.439 JLINK_SetWarnOutHandler(...)
T4750 490:526.449 - 0.014ms
T4750 490:526.461 JLINK_OpenEx(...)
T4750 490:527.970   Firmware: J-Link V9 compiled Dec 13 2019 11:14:50
T4750 490:528.174   Decompressing FW timestamp took 172 us
T4750 490:535.700   Hardware: V9.60
T4750 490:535.726   S/N: 63628769
T4750 490:535.740   OEM: SEGGER
T4750 490:535.755   Feature(s): GDB, RDI, FlashBP, FlashDL, JFlash, RDDI
T4750 490:537.273   TELNET listener socket opened on port 19021
T4750 490:541.779   WEBSRV Starting webserver
T4750 490:541.982   WEBSRV Webserver running on local port 19080
T4750 490:542.006 - 15.552ms returns "O.K."
T4750 490:542.416 JLINK_GetEmuCaps()
T4750 490:542.434 - 0.022ms returns 0xB9FF7BBF
T4750 490:542.449 JLINK_TIF_GetAvailable(...)
T4750 490:542.630 - 0.193ms
T4750 490:542.655 JLINK_SetErrorOutHandler(...)
T4750 490:542.665 - 0.015ms
T4750 490:542.681 JLINK_ExecCommand("ProjectFile = "C:\Users\BOX\Desktop\F429_LVGL\MDK-ARM\JLinkSettings.ini"", ...). 
T4750 490:544.177 - 1.505ms returns 0x00
T4750 490:547.034 JLINK_ExecCommand("Device = STM32F429ZGTx", ...). 
T4750 490:549.790   Device "STM32F429ZG" selected.
T4750 490:550.279 - 3.222ms returns 0x00
T4750 490:550.296 JLINK_ExecCommand("DisableConnectionTimeout", ...). 
T4750 490:550.311 - 0.007ms returns 0x01
T4750 490:550.327 JLINK_GetHardwareVersion()
T4750 490:550.337 - 0.014ms returns 0x17700
T4750 490:550.348 JLINK_GetDLLVersion()  returns 67003
T4750 490:550.362 JLINK_GetFirmwareString(...)
T4750 490:550.372 - 0.013ms
T4750 490:558.917 JLINK_GetDLLVersion()  returns 67003
T4750 490:558.941 JLINK_GetCompileDateTime()
T4750 490:558.951 - 0.014ms
T4750 490:561.283 JLINK_GetFirmwareString(...)
T4750 490:561.304 - 0.026ms
T4750 490:563.974 JLINK_GetHardwareVersion()
T4750 490:564.002 - 0.033ms returns 0x17700
T4750 490:574.594 JLINK_TIF_Select(JLINKARM_TIF_SWD)
T4750 490:575.752 - 1.172ms returns 0x00
T4750 490:575.782 JLINK_SetSpeed(20000)
T4750 490:575.965 - 0.194ms
T4750 490:575.987 JLINK_GetId()
T4750 490:579.849   Found SW-DP with ID 0x2BA01477
T4750 490:597.708   Found SW-DP with ID 0x2BA01477
T4750 490:599.639   Old FW that does not support reading DPIDR via DAP jobs
T4750 490:603.050   Unknown DP version. Assuming DPv0
T4750 490:606.002   Scanning AP map to find all available APs
T4750 490:609.079   AP[1]: Stopped AP scan as end of AP map has been reached
T4750 490:611.521   AP[0]: AHB-AP (IDR: 0x24770011)
T4750 490:614.423   Iterating through AP map to find AHB-AP to use
T4750 490:617.985   AP[0]: Core found
T4750 490:623.188   AP[0]: AHB-AP ROM base: 0xE00FF000
T4750 490:627.998   CPUID register: 0x410FC241. Implementer code: 0x41 (ARM)
T4750 490:630.988   Found Cortex-M4 r0p1, Little endian.
T4750 490:732.233    -- Max. mem block: 0x00010A10
T4750 490:732.269    -- CPU_ReadMem(4 bytes @ 0xE000EDF0)
T4750 490:732.866    -- CPU_WriteMem(4 bytes @ 0xE000EDF0)
T4750 490:733.251    -- CPU_ReadMem(4 bytes @ 0xE0002000)
T4750 490:736.562   FPUnit: 6 code (BP) slots and 2 literal slots
T4750 490:736.585    -- CPU_ReadMem(4 bytes @ 0xE000EDFC)
T4750 490:736.995    -- CPU_WriteMem(4 bytes @ 0xE000EDFC)
T4750 490:737.377    -- CPU_ReadMem(4 bytes @ 0xE0001000)
T4750 490:737.721    -- CPU_WriteMem(4 bytes @ 0xE0001000)
T4750 490:738.115    -- CPU_ReadMem(4 bytes @ 0xE000ED88)
T4750 490:738.459    -- CPU_WriteMem(4 bytes @ 0xE000ED88)
T4750 490:738.865    -- CPU_ReadMem(4 bytes @ 0xE000ED88)
T4750 490:739.204    -- CPU_WriteMem(4 bytes @ 0xE000ED88)
T4750 490:742.377   CoreSight components:
T4750 490:747.701   ROMTbl[0] @ E00FF000
T4750 490:747.743    -- CPU_ReadMem(64 bytes @ 0xE00FF000)
T4750 490:748.423    -- CPU_ReadMem(32 bytes @ 0xE000EFE0)
T4750 490:751.526   ROMTbl[0][0]: E000E000, CID: B105E00D, PID: 000BB00C SCS-M7
T4750 490:751.549    -- CPU_ReadMem(32 bytes @ 0xE0001FE0)
T4750 490:755.550   ROMTbl[0][1]: E0001000, CID: B105E00D, PID: 003BB002 DWT
T4750 490:755.623    -- CPU_ReadMem(32 bytes @ 0xE0002FE0)
T4750 490:759.758   ROMTbl[0][2]: E0002000, CID: B105E00D, PID: 002BB003 FPB
T4750 490:759.785    -- CPU_ReadMem(32 bytes @ 0xE0000FE0)
T4750 490:764.057   ROMTbl[0][3]: E0000000, CID: B105E00D, PID: 003BB001 ITM
T4750 490:764.097    -- CPU_ReadMem(32 bytes @ 0xE0040FE0)
T4750 490:767.696   ROMTbl[0][4]: E0040000, CID: B105900D, PID: 000BB9A1 TPIU
T4750 490:767.723    -- CPU_ReadMem(32 bytes @ 0xE0041FE0)
T4750 490:771.576   ROMTbl[0][5]: E0041000, CID: B105900D, PID: 000BB925 ETM
T4750 490:771.934 - 195.957ms   returns 0x2BA01477
T4750 490:771.958 JLINK_GetDLLVersion()  returns 67003
T4750 490:771.974 JLINK_CORE_GetFound()
T4750 490:771.984 - 0.015ms returns 0xE0000FF
T4750 490:771.999 JLINK_GetDebugInfo(0x100 = JLINKARM_ROM_TABLE_ADDR_INDEX)
T4750 490:772.010   Value=0xE00FF000
T4750 490:772.024 - 0.030ms returns 0x00
T4750 490:775.577 JLINK_GetDebugInfo(0x100 = JLINKARM_ROM_TABLE_ADDR_INDEX)
T4750 490:775.598   Value=0xE00FF000
T4750 490:775.612 - 0.039ms returns 0x00
T4750 490:775.623 JLINK_GetDebugInfo(0x101 = JLINKARM_DEBUG_INFO_ETM_ADDR_INDEX)
T4750 490:775.633   Value=0xE0041000
T4750 490:775.647 - 0.027ms returns 0x00
T4750 490:775.662   JLINK_ReadMemEx(0xE0041FD0, 0x0020 Bytes, ..., Flags = 0x02000004)
T4750 490:775.682    -- CPU_ReadMem(32 bytes @ 0xE0041FD0)
T4750 490:776.254   Data:  04 00 00 00 00 00 00 00 00 00 00 00 00 00 00 00 ...
T4750 490:776.277 - 0.620ms returns 0x20
T4750 490:776.290 JLINK_GetDebugInfo(0x102 = JLINKARM_DEBUG_INFO_MTB_ADDR_INDEX)
T4750 490:776.301   Value=0x00000000
T4750 490:776.315 - 0.029ms returns 0x00
T4750 490:776.327 JLINK_GetDebugInfo(0x103 = JLINKARM_DEBUG_INFO_TPIU_ADDR_INDEX)
T4750 490:776.337   Value=0xE0040000
T4750 490:776.351 - 0.028ms returns 0x00
T4750 490:776.362 JLINK_GetDebugInfo(0x104 = JLINKARM_DEBUG_INFO_ITM_ADDR_INDEX)
T4750 490:776.372   Value=0xE0000000
T4750 490:776.386 - 0.029ms returns 0x00
T4750 490:776.398 JLINK_GetDebugInfo(0x105 = JLINKARM_DEBUG_INFO_DWT_ADDR_INDEX)
T4750 490:776.407   Value=0xE0001000
T4750 490:776.421 - 0.028ms returns 0x00
T4750 490:776.432 JLINK_GetDebugInfo(0x106 = JLINKARM_DEBUG_INFO_FPB_ADDR_INDEX)
T4750 490:776.442   Value=0xE0002000
T4750 490:776.456 - 0.028ms returns 0x00
T4750 490:776.467 JLINK_GetDebugInfo(0x107 = JLINKARM_DEBUG_INFO_NVIC_ADDR_INDEX)
T4750 490:776.477   Value=0xE000E000
T4750 490:776.491 - 0.028ms returns 0x00
T4750 490:776.502 JLINK_GetDebugInfo(0x10C = JLINKARM_DEBUG_INFO_DBG_ADDR_INDEX)
T4750 490:776.512   Value=0xE000EDF0
T4750 490:776.526 - 0.028ms returns 0x00
T4750 490:776.537 JLINK_GetDebugInfo(0x01 = Unknown)
T4750 490:776.548   Value=0x00000001
T4750 490:776.563 - 0.030ms returns 0x00
T4750 490:776.577 JLINK_ReadMemU32(0xE000ED00, 0x0001 Items, ...)
T4750 490:776.590    -- CPU_ReadMem(4 bytes @ 0xE000ED00)
T4750 490:776.979   Data:  41 C2 0F 41
T4750 490:777.001    - CPUID
T4750 490:777.015 - 0.443ms returns 1
T4750 490:777.029 JLINK_GetDebugInfo(0x10F = JLINKARM_DEBUG_INFO_HAS_CORTEX_M_SECURITY_EXT_INDEX)
T4750 490:777.039   Value=0x00000000
T4750 490:777.053 - 0.029ms returns 0x00
T4750 490:777.069 JLINK_SetResetType(JLINKARM_CM3_RESET_TYPE_NORMAL)
T4750 490:777.079 - 0.015ms returns JLINKARM_CM3_RESET_TYPE_NORMAL
T4750 490:777.092 JLINK_Reset()
T4750 490:777.105   CPU is running
T4750 490:777.121    -- CPU_WriteMem(4 bytes @ 0xE000EDF0)
T4750 490:777.601   CPU is running
T4750 490:777.621    -- CPU_WriteMem(4 bytes @ 0xE000EDFC)
T4750 490:781.082   Reset: Halt core after reset via DEMCR.VC_CORERESET.
T4750 490:784.235   Reset: Reset device via AIRCR.SYSRESETREQ.
T4750 490:784.261   CPU is running
T4750 490:784.279    -- CPU_WriteMem(4 bytes @ 0xE000ED0C)
T4750 490:837.820    -- CPU_ReadMem(4 bytes @ 0xE000EDF0)
T4750 490:838.273    -- CPU_ReadMem(4 bytes @ 0xE000EDF0)
T4750 490:838.718   CPU is running
T4750 490:838.741    -- CPU_WriteMem(4 bytes @ 0xE000EDF0)
T4750 490:839.083   CPU is running
T4750 490:839.106    -- CPU_WriteMem(4 bytes @ 0xE000EDFC)
T4750 490:844.938    -- CPU_ReadMem(4 bytes @ 0xE000EDF0)
T4750 490:847.809    -- CPU_WriteMem(4 bytes @ 0xE0002000)
T4750 490:848.258    -- CPU_ReadMem(4 bytes @ 0xE000EDFC)
T4750 490:848.728    -- CPU_ReadMem(4 bytes @ 0xE0001000)
T4750 490:849.179 - 72.098ms
T4750 490:849.216 JLINK_Halt()
T4750 490:849.227 - 0.016ms returns 0x00
T4750 490:849.240 JLINK_ReadMemU32(0xE000EDF0, 0x0001 Items, ...)
T4750 490:849.255    -- CPU_ReadMem(4 bytes @ 0xE000EDF0)
T4750 490:849.655   Data:  03 00 03 00
T4750 490:849.677    - DHCSR
T4750 490:849.691 - 0.456ms returns 1
T4750 490:849.708 JLINK_WriteU32(0xE000EDF0, 0xA05F0003)
T4750 490:849.720    - DHCSR
T4750 490:849.739    -- CPU_WriteMem(4 bytes @ 0xE000EDF0)
T4750 490:850.155 - 0.457ms returns 0
T4750 490:850.177 JLINK_WriteU32(0xE000EDFC, 0x01000000)
T4750 490:850.188    - DEMCR
T4750 490:850.206    -- CPU_WriteMem(4 bytes @ 0xE000EDFC)
T4750 490:850.657 - 0.491ms returns 0
T4750 490:862.537 JLINK_GetHWStatus(...)
T4750 490:862.873 - 0.363ms returns 0x00
T4750 490:872.061 JLINK_GetNumBPUnits(Type = 0xFFFFFF00)
T4750 490:872.089 - 0.033ms returns 0x06
T4750 490:872.101 JLINK_GetNumBPUnits(Type = 0xF0)
T4750 490:872.110 - 0.014ms returns 0x2000
T4750 490:872.122 JLINK_GetNumWPUnits()
T4750 490:872.132 - 0.014ms returns 0x04
T4750 490:879.359 JLINK_GetSpeed()
T4750 490:879.442 - 0.088ms returns 0x2EE0
T4750 490:885.649 JLINK_ReadMemU32(0xE000E004, 0x0001 Items, ...)
T4750 490:885.685    -- CPU_ReadMem(4 bytes @ 0xE000E004)
T4750 490:886.022   Data:  02 00 00 00
T4750 490:886.044 - 0.399ms returns 1
T4750 490:886.058 JLINK_ReadMemU32(0xE000E004, 0x0001 Items, ...)
T4750 490:886.072    -- CPU_ReadMem(4 bytes @ 0xE000E004)
T4750 490:886.453   Data:  02 00 00 00
T4750 490:886.474 - 0.420ms returns 1
T4750 490:886.492 JLINK_WriteMemEx(0xE0001000, 0x001C Bytes, ..., Flags = 0x02000004)
T4750 490:886.503   Data:  01 00 00 00 00 00 00 00 00 00 00 00 00 00 00 00 ...
T4750 490:886.708    -- CPU_WriteMem(28 bytes @ 0xE0001000)
T4750 490:887.183 - 0.700ms returns 0x1C
T4750 490:887.203 JLINK_Halt()
T4750 490:887.214 - 0.015ms returns 0x00
T4750 490:887.227 JLINK_IsHalted()
T4750 490:887.238 - 0.015ms returns TRUE
T4750 490:889.683 JLINK_WriteMem(0x20000000, 0x0180 Bytes, ...)
T4750 490:889.698   Data:  00 BE 0A E0 0D 78 2D 06 68 40 08 24 40 00 00 D3 ...
T4750 490:889.883    -- CPU_WriteMem(384 bytes @ 0x20000000)
T4750 490:892.039 - 2.366ms returns 0x180
T4750 490:892.080 JLINK_WriteReg(R0, 0x08000000)
T4750 490:892.094 - 0.019ms returns 0x00
T4750 490:892.106 JLINK_WriteReg(R1, 0x0ABA9500)
T4750 490:892.116 - 0.015ms returns 0x00
T4750 490:892.127 JLINK_WriteReg(R2, 0x00000001)
T4750 490:892.138 - 0.015ms returns 0x00
T4750 490:892.149 JLINK_WriteReg(R3, 0x00000000)
T4750 490:892.159 - 0.015ms returns 0x00
T4750 490:892.171 JLINK_WriteReg(R4, 0x00000000)
T4750 490:892.181 - 0.014ms returns 0x00
T4750 490:892.192 JLINK_WriteReg(R5, 0x00000000)
T4750 490:892.202 - 0.015ms returns 0x00
T4750 490:892.213 JLINK_WriteReg(R6, 0x00000000)
T4750 490:892.223 - 0.014ms returns 0x00
T4750 490:892.235 JLINK_WriteReg(R7, 0x00000000)
T4750 490:892.244 - 0.014ms returns 0x00
T4750 490:892.256 JLINK_WriteReg(R8, 0x00000000)
T4750 490:892.265 - 0.015ms returns 0x00
T4750 490:892.277 JLINK_WriteReg(R9, 0x2000017C)
T4750 490:892.287 - 0.014ms returns 0x00
T4750 490:892.298 JLINK_WriteReg(R10, 0x00000000)
T4750 490:892.308 - 0.015ms returns 0x00
T4750 490:892.320 JLINK_WriteReg(R11, 0x00000000)
T4750 490:892.330 - 0.015ms returns 0x00
T4750 490:892.341 JLINK_WriteReg(R12, 0x00000000)
T4750 490:892.351 - 0.014ms returns 0x00
T4750 490:892.362 JLINK_WriteReg(R13 (SP), 0x20001000)
T4750 490:892.373 - 0.015ms returns 0x00
T4750 490:892.384 JLINK_WriteReg(R14, 0x20000001)
T4750 490:892.394 - 0.014ms returns 0x00
T4750 490:892.406 JLINK_WriteReg(R15 (PC), 0x20000054)
T4750 490:892.416 - 0.015ms returns 0x00
T4750 490:892.427 JLINK_WriteReg(XPSR, 0x01000000)
T4750 490:892.437 - 0.015ms returns 0x00
T4750 490:892.449 JLINK_WriteReg(MSP, 0x20001000)
T4750 490:892.463 - 0.019ms returns 0x00
T4750 490:892.477 JLINK_WriteReg(PSP, 0x20001000)
T4750 490:892.489 - 0.017ms returns 0x00
T4750 490:892.501 JLINK_WriteReg(CFBP, 0x00000000)
T4750 490:892.511 - 0.014ms returns 0x00
T4750 490:892.524   JLINK_SetBPEx(Addr = 0x20000000, Type = 0xFFFFFFF2)
T4750 490:892.541    -- CPU_ReadMem(2 bytes @ 0x20000000)
T4750 490:892.955 - 0.443ms returns 0x00000001
T4750 490:892.977 JLINK_Go()
T4750 490:892.990    -- CPU_WriteMem(2 bytes @ 0x20000000)
T4750 490:893.490    -- CPU_ReadMem(4 bytes @ 0xE0001000)
T4750 490:893.917    -- CPU_WriteMem(4 bytes @ 0xE0002008)
T4750 490:893.939    -- CPU_WriteMem(4 bytes @ 0xE000200C)
T4750 490:893.954    -- CPU_WriteMem(4 bytes @ 0xE0002010)
T4750 490:893.969    -- CPU_WriteMem(4 bytes @ 0xE0002014)
T4750 490:893.983    -- CPU_WriteMem(4 bytes @ 0xE0002018)
T4750 490:893.998    -- CPU_WriteMem(4 bytes @ 0xE000201C)
T4750 490:895.625    -- CPU_WriteMem(4 bytes @ 0xE0001004)
T4750 490:898.671 - 5.715ms
T4750 490:898.703 JLINK_IsHalted()
T4750 490:901.067    -- CPU_ReadMem(2 bytes @ 0x20000000)
T4750 490:901.445 - 2.751ms returns TRUE
T4750 490:901.467 JLINK_ReadReg(R15 (PC))
T4750 490:901.479 - 0.017ms returns 0x20000000
T4750 490:901.492 JLINK_ClrBPEx(BPHandle = 0x00000001)
T4750 490:901.503 - 0.015ms returns 0x00
T4750 490:901.515 JLINK_ReadReg(R0)
T4750 490:901.525 - 0.015ms returns 0x00000000
T4750 490:901.800 JLINK_WriteReg(R0, 0x08000000)
T4750 490:901.816 - 0.020ms returns 0x00
T4750 490:901.827 JLINK_WriteReg(R1, 0x00004000)
T4750 490:901.838 - 0.016ms returns 0x00
T4750 490:901.850 JLINK_WriteReg(R2, 0x000000FF)
T4750 490:901.859 - 0.014ms returns 0x00
T4750 490:901.870 JLINK_WriteReg(R3, 0x00000000)
T4750 490:901.880 - 0.014ms returns 0x00
T4750 490:901.892 JLINK_WriteReg(R4, 0x00000000)
T4750 490:901.902 - 0.014ms returns 0x00
T4750 490:901.913 JLINK_WriteReg(R5, 0x00000000)
T4750 490:901.923 - 0.014ms returns 0x00
T4750 490:901.934 JLINK_WriteReg(R6, 0x00000000)
T4750 490:901.943 - 0.014ms returns 0x00
T4750 490:901.955 JLINK_WriteReg(R7, 0x00000000)
T4750 490:901.965 - 0.014ms returns 0x00
T4750 490:901.976 JLINK_WriteReg(R8, 0x00000000)
T4750 490:901.986 - 0.014ms returns 0x00
T4750 490:901.997 JLINK_WriteReg(R9, 0x2000017C)
T4750 490:902.006 - 0.014ms returns 0x00
T4750 490:902.018 JLINK_WriteReg(R10, 0x00000000)
T4750 490:902.028 - 0.014ms returns 0x00
T4750 490:902.039 JLINK_WriteReg(R11, 0x00000000)
T4750 490:902.048 - 0.014ms returns 0x00
T4750 490:902.059 JLINK_WriteReg(R12, 0x00000000)
T4750 490:902.069 - 0.014ms returns 0x00
T4750 490:902.081 JLINK_WriteReg(R13 (SP), 0x20001000)
T4750 490:902.091 - 0.015ms returns 0x00
T4750 490:902.102 JLINK_WriteReg(R14, 0x20000001)
T4750 490:902.112 - 0.014ms returns 0x00
T4750 490:902.124 JLINK_WriteReg(R15 (PC), 0x20000020)
T4750 490:902.134 - 0.014ms returns 0x00
T4750 490:902.146 JLINK_WriteReg(XPSR, 0x01000000)
T4750 490:902.155 - 0.014ms returns 0x00
T4750 490:902.166 JLINK_WriteReg(MSP, 0x20001000)
T4750 490:902.176 - 0.014ms returns 0x00
T4750 490:902.188 JLINK_WriteReg(PSP, 0x20001000)
T4750 490:902.198 - 0.014ms returns 0x00
T4750 490:902.210 JLINK_WriteReg(CFBP, 0x00000000)
T4750 490:902.219 - 0.014ms returns 0x00
T4750 490:902.231   JLINK_SetBPEx(Addr = 0x20000000, Type = 0xFFFFFFF2)
T4750 490:902.246 - 0.019ms returns 0x00000002
T4750 490:902.258 JLINK_Go()
T4750 490:902.273    -- CPU_ReadMem(4 bytes @ 0xE0001000)
T4750 490:905.337 - 3.089ms
T4750 490:905.358 JLINK_IsHalted()
T4750 490:905.761 - 0.413ms returns FALSE
T4750 490:917.843 JLINK_IsHalted()
T4750 490:918.263 - 0.432ms returns FALSE
T4750 490:919.871 JLINK_IsHalted()
T4750 490:922.392    -- CPU_ReadMem(2 bytes @ 0x20000000)
T4750 490:922.900 - 3.039ms returns TRUE
T4750 490:922.920 JLINK_ReadReg(R15 (PC))
T4750 490:922.933 - 0.017ms returns 0x20000000
T4750 490:922.945 JLINK_ClrBPEx(BPHandle = 0x00000002)
T4750 490:922.955 - 0.015ms returns 0x00
T4750 490:922.967 JLINK_ReadReg(R0)
T4750 490:922.977 - 0.054ms returns 0x00000000
T4750 490:923.444 JLINK_WriteReg(R0, 0x08004000)
T4750 490:923.460 - 0.021ms returns 0x00
T4750 490:923.472 JLINK_WriteReg(R1, 0x00004000)
T4750 490:923.481 - 0.014ms returns 0x00
T4750 490:923.492 JLINK_WriteReg(R2, 0x000000FF)
T4750 490:923.502 - 0.014ms returns 0x00
T4750 490:923.513 JLINK_WriteReg(R3, 0x00000000)
T4750 490:923.523 - 0.014ms returns 0x00
T4750 490:923.534 JLINK_WriteReg(R4, 0x00000000)
T4750 490:923.543 - 0.014ms returns 0x00
T4750 490:923.554 JLINK_WriteReg(R5, 0x00000000)
T4750 490:923.563 - 0.014ms returns 0x00
T4750 490:923.574 JLINK_WriteReg(R6, 0x00000000)
T4750 490:923.584 - 0.014ms returns 0x00
T4750 490:923.595 JLINK_WriteReg(R7, 0x00000000)
T4750 490:923.604 - 0.014ms returns 0x00
T4750 490:923.615 JLINK_WriteReg(R8, 0x00000000)
T4750 490:923.625 - 0.014ms returns 0x00
T4750 490:923.636 JLINK_WriteReg(R9, 0x2000017C)
T4750 490:923.645 - 0.014ms returns 0x00
T4750 490:923.656 JLINK_WriteReg(R10, 0x00000000)
T4750 490:923.666 - 0.014ms returns 0x00
T4750 490:923.677 JLINK_WriteReg(R11, 0x00000000)
T4750 490:923.686 - 0.014ms returns 0x00
T4750 490:923.698 JLINK_WriteReg(R12, 0x00000000)
T4750 490:923.707 - 0.014ms returns 0x00
T4750 490:923.718 JLINK_WriteReg(R13 (SP), 0x20001000)
T4750 490:923.728 - 0.014ms returns 0x00
T4750 490:923.739 JLINK_WriteReg(R14, 0x20000001)
T4750 490:923.748 - 0.014ms returns 0x00
T4750 490:923.759 JLINK_WriteReg(R15 (PC), 0x20000020)
T4750 490:923.769 - 0.014ms returns 0x00
T4750 490:923.780 JLINK_WriteReg(XPSR, 0x01000000)
T4750 490:923.790 - 0.014ms returns 0x00
T4750 490:923.801 JLINK_WriteReg(MSP, 0x20001000)
T4750 490:923.810 - 0.014ms returns 0x00
T4750 490:923.821 JLINK_WriteReg(PSP, 0x20001000)
T4750 490:923.831 - 0.014ms returns 0x00
T4750 490:923.842 JLINK_WriteReg(CFBP, 0x00000000)
T4750 490:923.851 - 0.014ms returns 0x00
T4750 490:923.863   JLINK_SetBPEx(Addr = 0x20000000, Type = 0xFFFFFFF2)
T4750 490:923.877 - 0.019ms returns 0x00000003
T4750 490:923.889 JLINK_Go()
T4750 490:923.906    -- CPU_ReadMem(4 bytes @ 0xE0001000)
T4750 490:927.090 - 3.224ms
T4750 490:927.125 JLINK_IsHalted()
T4750 490:927.637 - 0.523ms returns FALSE
T4750 490:928.894 JLINK_IsHalted()
T4750 490:929.260 - 0.394ms returns FALSE
T4750 490:930.992 JLINK_IsHalted()
T4750 490:931.339 - 0.359ms returns FALSE
T4750 490:932.851 JLINK_IsHalted()
T4750 490:933.189 - 0.346ms returns FALSE
T4750 490:934.893 JLINK_IsHalted()
T4750 490:935.225 - 0.341ms returns FALSE
T4750 490:936.891 JLINK_IsHalted()
T4750 490:937.326 - 0.445ms returns FALSE
T4750 490:938.918 JLINK_IsHalted()
T4750 490:939.324 - 0.416ms returns FALSE
T4750 490:940.909 JLINK_IsHalted()
T4750 490:941.300 - 0.401ms returns FALSE
T4750 490:942.906 JLINK_IsHalted()
T4750 490:945.293    -- CPU_ReadMem(2 bytes @ 0x20000000)
T4750 490:945.821 - 2.929ms returns TRUE
T4750 490:945.845 JLINK_ReadReg(R15 (PC))
T4750 490:945.885 - 0.044ms returns 0x20000000
T4750 490:945.910 JLINK_ClrBPEx(BPHandle = 0x00000003)
T4750 490:945.920 - 0.014ms returns 0x00
T4750 490:945.932 JLINK_ReadReg(R0)
T4750 490:945.941 - 0.014ms returns 0x00000000
T4750 490:946.431 JLINK_WriteReg(R0, 0x08008000)
T4750 490:946.449 - 0.022ms returns 0x00
T4750 490:946.460 JLINK_WriteReg(R1, 0x00004000)
T4750 490:946.470 - 0.014ms returns 0x00
T4750 490:946.481 JLINK_WriteReg(R2, 0x000000FF)
T4750 490:946.490 - 0.014ms returns 0x00
T4750 490:946.501 JLINK_WriteReg(R3, 0x00000000)
T4750 490:946.510 - 0.013ms returns 0x00
T4750 490:946.521 JLINK_WriteReg(R4, 0x00000000)
T4750 490:946.530 - 0.013ms returns 0x00
T4750 490:946.541 JLINK_WriteReg(R5, 0x00000000)
T4750 490:946.550 - 0.013ms returns 0x00
T4750 490:946.561 JLINK_WriteReg(R6, 0x00000000)
T4750 490:946.570 - 0.014ms returns 0x00
T4750 490:946.581 JLINK_WriteReg(R7, 0x00000000)
T4750 490:946.591 - 0.014ms returns 0x00
T4750 490:946.601 JLINK_WriteReg(R8, 0x00000000)
T4750 490:946.611 - 0.013ms returns 0x00
T4750 490:946.622 JLINK_WriteReg(R9, 0x2000017C)
T4750 490:946.631 - 0.014ms returns 0x00
T4750 490:946.683 JLINK_WriteReg(R10, 0x00000000)
T4750 490:946.697 - 0.018ms returns 0x00
T4750 490:946.708 JLINK_WriteReg(R11, 0x00000000)
T4750 490:946.717 - 0.014ms returns 0x00
T4750 490:946.728 JLINK_WriteReg(R12, 0x00000000)
T4750 490:946.737 - 0.013ms returns 0x00
T4750 490:946.748 JLINK_WriteReg(R13 (SP), 0x20001000)
T4750 490:946.757 - 0.014ms returns 0x00
T4750 490:946.768 JLINK_WriteReg(R14, 0x20000001)
T4750 490:946.777 - 0.013ms returns 0x00
T4750 490:946.788 JLINK_WriteReg(R15 (PC), 0x20000020)
T4750 490:946.797 - 0.013ms returns 0x00
T4750 490:946.809 JLINK_WriteReg(XPSR, 0x01000000)
T4750 490:946.819 - 0.014ms returns 0x00
T4750 490:946.829 JLINK_WriteReg(MSP, 0x20001000)
T4750 490:946.839 - 0.013ms returns 0x00
T4750 490:946.849 JLINK_WriteReg(PSP, 0x20001000)
T4750 490:946.859 - 0.013ms returns 0x00
T4750 490:946.869 JLINK_WriteReg(CFBP, 0x00000000)
T4750 490:946.879 - 0.013ms returns 0x00
T4750 490:946.890   JLINK_SetBPEx(Addr = 0x20000000, Type = 0xFFFFFFF2)
T4750 490:946.904 - 0.019ms returns 0x00000004
T4750 490:946.916 JLINK_Go()
T4750 490:946.931    -- CPU_ReadMem(4 bytes @ 0xE0001000)
T4750 490:949.871 - 2.966ms
T4750 490:949.891 JLINK_IsHalted()
T4750 490:950.297 - 0.417ms returns FALSE
T4750 490:952.856 JLINK_IsHalted()
T4750 490:953.376 - 0.531ms returns FALSE
T4750 490:954.830 JLINK_IsHalted()
T4750 490:955.282 - 0.462ms returns FALSE
T4750 490:956.881 JLINK_IsHalted()
T4750 490:957.287 - 0.416ms returns FALSE
T4750 490:958.862 JLINK_IsHalted()
T4750 490:959.368 - 0.527ms returns FALSE
T4750 490:960.784 JLINK_IsHalted()
T4750 490:961.349 - 0.577ms returns FALSE
T4750 490:962.797 JLINK_IsHalted()
T4750 490:963.220 - 0.436ms returns FALSE
T4750 490:964.770 JLINK_IsHalted()
T4750 490:967.162    -- CPU_ReadMem(2 bytes @ 0x20000000)
T4750 490:967.549 - 2.787ms returns TRUE
T4750 490:967.567 JLINK_ReadReg(R15 (PC))
T4750 490:967.579 - 0.017ms returns 0x20000000
T4750 490:967.591 JLINK_ClrBPEx(BPHandle = 0x00000004)
T4750 490:967.601 - 0.014ms returns 0x00
T4750 490:967.613 JLINK_ReadReg(R0)
T4750 490:967.622 - 0.014ms returns 0x00000000
T4750 490:968.075 JLINK_WriteReg(R0, 0x0800C000)
T4750 490:968.091 - 0.020ms returns 0x00
T4750 490:968.102 JLINK_WriteReg(R1, 0x00004000)
T4750 490:968.112 - 0.014ms returns 0x00
T4750 490:968.123 JLINK_WriteReg(R2, 0x000000FF)
T4750 490:968.132 - 0.014ms returns 0x00
T4750 490:968.143 JLINK_WriteReg(R3, 0x00000000)
T4750 490:968.152 - 0.013ms returns 0x00
T4750 490:968.163 JLINK_WriteReg(R4, 0x00000000)
T4750 490:968.172 - 0.013ms returns 0x00
T4750 490:968.183 JLINK_WriteReg(R5, 0x00000000)
T4750 490:968.192 - 0.013ms returns 0x00
T4750 490:968.203 JLINK_WriteReg(R6, 0x00000000)
T4750 490:968.212 - 0.013ms returns 0x00
T4750 490:968.223 JLINK_WriteReg(R7, 0x00000000)
T4750 490:968.232 - 0.013ms returns 0x00
T4750 490:968.243 JLINK_WriteReg(R8, 0x00000000)
T4750 490:968.252 - 0.014ms returns 0x00
T4750 490:968.263 JLINK_WriteReg(R9, 0x2000017C)
T4750 490:968.272 - 0.014ms returns 0x00
T4750 490:968.283 JLINK_WriteReg(R10, 0x00000000)
T4750 490:968.292 - 0.014ms returns 0x00
T4750 490:968.303 JLINK_WriteReg(R11, 0x00000000)
T4750 490:968.312 - 0.014ms returns 0x00
T4750 490:968.323 JLINK_WriteReg(R12, 0x00000000)
T4750 490:968.332 - 0.013ms returns 0x00
T4750 490:968.343 JLINK_WriteReg(R13 (SP), 0x20001000)
T4750 490:968.353 - 0.014ms returns 0x00
T4750 490:968.364 JLINK_WriteReg(R14, 0x20000001)
T4750 490:968.373 - 0.013ms returns 0x00
T4750 490:968.384 JLINK_WriteReg(R15 (PC), 0x20000020)
T4750 490:968.393 - 0.014ms returns 0x00
T4750 490:968.404 JLINK_WriteReg(XPSR, 0x01000000)
T4750 490:968.413 - 0.014ms returns 0x00
T4750 490:968.424 JLINK_WriteReg(MSP, 0x20001000)
T4750 490:968.433 - 0.013ms returns 0x00
T4750 490:968.444 JLINK_WriteReg(PSP, 0x20001000)
T4750 490:968.453 - 0.013ms returns 0x00
T4750 490:968.464 JLINK_WriteReg(CFBP, 0x00000000)
T4750 490:968.473 - 0.014ms returns 0x00
T4750 490:968.485   JLINK_SetBPEx(Addr = 0x20000000, Type = 0xFFFFFFF2)
T4750 490:968.499 - 0.070ms returns 0x00000005
T4750 490:968.565 JLINK_Go()
T4750 490:968.581    -- CPU_ReadMem(4 bytes @ 0xE0001000)
T4750 490:971.599 - 3.059ms
T4750 490:971.636 JLINK_IsHalted()
T4750 490:972.109 - 0.484ms returns FALSE
T4750 490:974.039 JLINK_IsHalted()
T4750 490:974.624 - 0.609ms returns FALSE
T4750 490:976.142 JLINK_IsHalted()
T4750 490:976.643 - 0.521ms returns FALSE
T4750 490:977.948 JLINK_IsHalted()
T4750 490:978.371 - 0.437ms returns FALSE
T4750 490:979.970 JLINK_IsHalted()
T4750 490:980.447 - 0.497ms returns FALSE
T4750 490:981.965 JLINK_IsHalted()
T4750 490:982.396 - 0.441ms returns FALSE
T4750 490:983.976 JLINK_IsHalted()
T4750 490:984.386 - 0.420ms returns FALSE
T4750 490:985.971 JLINK_IsHalted()
T4750 490:988.551    -- CPU_ReadMem(2 bytes @ 0x20000000)
T4750 490:988.984 - 3.023ms returns TRUE
T4750 490:989.004 JLINK_ReadReg(R15 (PC))
T4750 490:989.016 - 0.017ms returns 0x20000000
T4750 490:989.028 JLINK_ClrBPEx(BPHandle = 0x00000005)
T4750 490:989.038 - 0.014ms returns 0x00
T4750 490:989.049 JLINK_ReadReg(R0)
T4750 490:989.059 - 0.014ms returns 0x00000000
T4750 490:989.540 JLINK_WriteReg(R0, 0x08010000)
T4750 490:989.556 - 0.020ms returns 0x00
T4750 490:989.567 JLINK_WriteReg(R1, 0x00010000)
T4750 490:989.577 - 0.014ms returns 0x00
T4750 490:989.587 JLINK_WriteReg(R2, 0x000000FF)
T4750 490:989.597 - 0.013ms returns 0x00
T4750 490:989.607 JLINK_WriteReg(R3, 0x00000000)
T4750 490:989.617 - 0.014ms returns 0x00
T4750 490:989.627 JLINK_WriteReg(R4, 0x00000000)
T4750 490:989.637 - 0.013ms returns 0x00
T4750 490:989.647 JLINK_WriteReg(R5, 0x00000000)
T4750 490:989.657 - 0.014ms returns 0x00
T4750 490:989.668 JLINK_WriteReg(R6, 0x00000000)
T4750 490:989.677 - 0.013ms returns 0x00
T4750 490:989.688 JLINK_WriteReg(R7, 0x00000000)
T4750 490:989.697 - 0.014ms returns 0x00
T4750 490:989.708 JLINK_WriteReg(R8, 0x00000000)
T4750 490:989.717 - 0.013ms returns 0x00
T4750 490:989.728 JLINK_WriteReg(R9, 0x2000017C)
T4750 490:989.737 - 0.013ms returns 0x00
T4750 490:989.748 JLINK_WriteReg(R10, 0x00000000)
T4750 490:989.757 - 0.013ms returns 0x00
T4750 490:989.768 JLINK_WriteReg(R11, 0x00000000)
T4750 490:989.777 - 0.014ms returns 0x00
T4750 490:989.788 JLINK_WriteReg(R12, 0x00000000)
T4750 490:989.797 - 0.013ms returns 0x00
T4750 490:989.808 JLINK_WriteReg(R13 (SP), 0x20001000)
T4750 490:989.818 - 0.014ms returns 0x00
T4750 490:989.828 JLINK_WriteReg(R14, 0x20000001)
T4750 490:989.838 - 0.013ms returns 0x00
T4750 490:989.848 JLINK_WriteReg(R15 (PC), 0x20000020)
T4750 490:989.858 - 0.014ms returns 0x00
T4750 490:989.869 JLINK_WriteReg(XPSR, 0x01000000)
T4750 490:989.879 - 0.015ms returns 0x00
T4750 490:989.890 JLINK_WriteReg(MSP, 0x20001000)
T4750 490:989.899 - 0.013ms returns 0x00
T4750 490:989.910 JLINK_WriteReg(PSP, 0x20001000)
T4750 490:989.919 - 0.013ms returns 0x00
T4750 490:989.930 JLINK_WriteReg(CFBP, 0x00000000)
T4750 490:989.939 - 0.014ms returns 0x00
T4750 490:989.951   JLINK_SetBPEx(Addr = 0x20000000, Type = 0xFFFFFFF2)
T4750 490:989.966 - 0.019ms returns 0x00000006
T4750 490:989.977 JLINK_Go()
T4750 490:989.992    -- CPU_ReadMem(4 bytes @ 0xE0001000)
T4750 490:992.958 - 2.992ms
T4750 490:992.978 JLINK_IsHalted()
T4750 490:993.408 - 0.442ms returns FALSE
T4750 490:994.959 JLINK_IsHalted()
T4750 490:995.315 - 0.368ms returns FALSE
T4750 490:996.911 JLINK_IsHalted()
T4750 490:997.311 - 0.411ms returns FALSE
T4750 490:998.900 JLINK_IsHalted()
T4750 490:999.239 - 0.347ms returns FALSE
T4750 491:000.979 JLINK_IsHalted()
T4750 491:001.390 - 0.421ms returns FALSE
T4750 491:002.971 JLINK_IsHalted()
T4750 491:003.351 - 0.391ms returns FALSE
T4750 491:004.967 JLINK_IsHalted()
T4750 491:005.339 - 0.382ms returns FALSE
T4750 491:006.958 JLINK_IsHalted()
T4750 491:007.368 - 0.420ms returns FALSE
T4750 491:008.935 JLINK_IsHalted()
T4750 491:009.291 - 0.367ms returns FALSE
T4750 491:010.989 JLINK_IsHalted()
T4750 491:011.483 - 0.506ms returns FALSE
T4750 491:012.902 JLINK_IsHalted()
T4750 491:013.355 - 0.463ms returns FALSE
T4750 491:015.032 JLINK_IsHalted()
T4750 491:015.609 - 0.602ms returns FALSE
T4750 491:017.071 JLINK_IsHalted()
T4750 491:017.657 - 0.612ms returns FALSE
T4750 491:019.061 JLINK_IsHalted()
T4750 491:019.639 - 0.603ms returns FALSE
T4750 491:021.024 JLINK_IsHalted()
T4750 491:021.602 - 0.602ms returns FALSE
T4750 491:023.024 JLINK_IsHalted()
T4750 491:023.588 - 0.588ms returns FALSE
T4750 491:024.838 JLINK_IsHalted()
T4750 491:025.240 - 0.415ms returns FALSE
T4750 491:026.826 JLINK_IsHalted()
T4750 491:027.163 - 0.346ms returns FALSE
T4750 491:028.844 JLINK_IsHalted()
T4750 491:029.206 - 0.371ms returns FALSE
T4750 491:030.862 JLINK_IsHalted()
T4750 491:031.205 - 0.351ms returns FALSE
T4750 491:032.857 JLINK_IsHalted()
T4750 491:033.184 - 0.335ms returns FALSE
T4750 491:034.893 JLINK_IsHalted()
T4750 491:035.265 - 0.382ms returns FALSE
T4750 491:037.008 JLINK_IsHalted()
T4750 491:037.422 - 0.424ms returns FALSE
T4750 491:038.999 JLINK_IsHalted()
T4750 491:039.393 - 0.406ms returns FALSE
T4750 491:041.052 JLINK_IsHalted()
T4750 491:041.449 - 0.409ms returns FALSE
T4750 491:042.902 JLINK_IsHalted()
T4750 491:043.311 - 0.420ms returns FALSE
T4750 491:044.897 JLINK_IsHalted()
T4750 491:045.273 - 0.388ms returns FALSE
T4750 491:046.945 JLINK_IsHalted()
T4750 491:047.331 - 0.396ms returns FALSE
T4750 491:048.923 JLINK_IsHalted()
T4750 491:049.342 - 0.430ms returns FALSE
T4750 491:051.013 JLINK_IsHalted()
T4750 491:053.706    -- CPU_ReadMem(2 bytes @ 0x20000000)
T4750 491:054.161 - 3.161ms returns TRUE
T4750 491:054.186 JLINK_ReadReg(R15 (PC))
T4750 491:054.198 - 0.017ms returns 0x20000000
T4750 491:054.210 JLINK_ClrBPEx(BPHandle = 0x00000006)
T4750 491:054.220 - 0.015ms returns 0x00
T4750 491:054.232 JLINK_ReadReg(R0)
T4750 491:054.241 - 0.014ms returns 0x00000000
T4750 491:054.736 JLINK_WriteReg(R0, 0x08020000)
T4750 491:054.754 - 0.023ms returns 0x00
T4750 491:054.766 JLINK_WriteReg(R1, 0x00020000)
T4750 491:054.775 - 0.014ms returns 0x00
T4750 491:054.786 JLINK_WriteReg(R2, 0x000000FF)
T4750 491:054.795 - 0.013ms returns 0x00
T4750 491:054.806 JLINK_WriteReg(R3, 0x00000000)
T4750 491:054.815 - 0.013ms returns 0x00
T4750 491:054.826 JLINK_WriteReg(R4, 0x00000000)
T4750 491:054.840 - 0.018ms returns 0x00
T4750 491:054.851 JLINK_WriteReg(R5, 0x00000000)
T4750 491:054.860 - 0.013ms returns 0x00
T4750 491:054.871 JLINK_WriteReg(R6, 0x00000000)
T4750 491:054.880 - 0.013ms returns 0x00
T4750 491:054.891 JLINK_WriteReg(R7, 0x00000000)
T4750 491:054.900 - 0.013ms returns 0x00
T4750 491:054.911 JLINK_WriteReg(R8, 0x00000000)
T4750 491:054.920 - 0.013ms returns 0x00
T4750 491:054.930 JLINK_WriteReg(R9, 0x2000017C)
T4750 491:054.940 - 0.013ms returns 0x00
T4750 491:054.950 JLINK_WriteReg(R10, 0x00000000)
T4750 491:054.960 - 0.013ms returns 0x00
T4750 491:054.970 JLINK_WriteReg(R11, 0x00000000)
T4750 491:054.980 - 0.013ms returns 0x00
T4750 491:054.990 JLINK_WriteReg(R12, 0x00000000)
T4750 491:055.000 - 0.013ms returns 0x00
T4750 491:055.010 JLINK_WriteReg(R13 (SP), 0x20001000)
T4750 491:055.020 - 0.014ms returns 0x00
T4750 491:055.031 JLINK_WriteReg(R14, 0x20000001)
T4750 491:055.040 - 0.013ms returns 0x00
T4750 491:055.051 JLINK_WriteReg(R15 (PC), 0x20000020)
T4750 491:055.060 - 0.014ms returns 0x00
T4750 491:055.071 JLINK_WriteReg(XPSR, 0x01000000)
T4750 491:055.080 - 0.014ms returns 0x00
T4750 491:055.091 JLINK_WriteReg(MSP, 0x20001000)
T4750 491:055.100 - 0.013ms returns 0x00
T4750 491:055.113 JLINK_WriteReg(PSP, 0x20001000)
T4750 491:055.123 - 0.015ms returns 0x00
T4750 491:055.139 JLINK_WriteReg(CFBP, 0x00000000)
T4750 491:055.191 - 0.062ms returns 0x00
T4750 491:055.208   JLINK_SetBPEx(Addr = 0x20000000, Type = 0xFFFFFFF2)
T4750 491:055.241 - 0.040ms returns 0x00000007
T4750 491:055.288 JLINK_Go()
T4750 491:055.319    -- CPU_ReadMem(4 bytes @ 0xE0001000)
T4750 491:058.272 - 2.996ms
T4750 491:058.294 JLINK_IsHalted()
T4750 491:058.655 - 0.370ms returns FALSE
T4750 491:061.117 JLINK_IsHalted()
T4750 491:061.554 - 0.448ms returns FALSE
T4750 491:063.138 JLINK_IsHalted()
T4750 491:063.548 - 0.432ms returns FALSE
T4750 491:065.109 JLINK_IsHalted()
T4750 491:065.467 - 0.368ms returns FALSE
T4750 491:067.127 JLINK_IsHalted()
T4750 491:067.513 - 0.396ms returns FALSE
T4750 491:069.137 JLINK_IsHalted()
T4750 491:069.537 - 0.410ms returns FALSE
T4750 491:071.073 JLINK_IsHalted()
T4750 491:071.531 - 0.468ms returns FALSE
T4750 491:073.112 JLINK_IsHalted()
T4750 491:073.511 - 0.409ms returns FALSE
T4750 491:075.109 JLINK_IsHalted()
T4750 491:075.507 - 0.408ms returns FALSE
T4750 491:077.110 JLINK_IsHalted()
T4750 491:077.609 - 0.509ms returns FALSE
T4750 491:079.059 JLINK_IsHalted()
T4750 491:079.474 - 0.425ms returns FALSE
T4750 491:081.126 JLINK_IsHalted()
T4750 491:081.556 - 0.440ms returns FALSE
T4750 491:083.097 JLINK_IsHalted()
T4750 491:083.500 - 0.413ms returns FALSE
T4750 491:085.115 JLINK_IsHalted()
T4750 491:085.673 - 0.568ms returns FALSE
T4750 491:087.054 JLINK_IsHalted()
T4750 491:087.427 - 0.382ms returns FALSE
T4750 491:089.053 JLINK_IsHalted()
T4750 491:089.444 - 0.401ms returns FALSE
T4750 491:091.076 JLINK_IsHalted()
T4750 491:091.473 - 0.408ms returns FALSE
T4750 491:093.073 JLINK_IsHalted()
T4750 491:093.470 - 0.407ms returns FALSE
T4750 491:094.986 JLINK_IsHalted()
T4750 491:095.568 - 0.607ms returns FALSE
T4750 491:097.008 JLINK_IsHalted()
T4750 491:097.417 - 0.420ms returns FALSE
T4750 491:099.070 JLINK_IsHalted()
T4750 491:099.501 - 0.441ms returns FALSE
T4750 491:101.089 JLINK_IsHalted()
T4750 491:101.558 - 0.479ms returns FALSE
T4750 491:106.055 JLINK_IsHalted()
T4750 491:106.458 - 0.413ms returns FALSE
T4750 491:108.043 JLINK_IsHalted()
T4750 491:108.459 - 0.426ms returns FALSE
T4750 491:110.027 JLINK_IsHalted()
T4750 491:110.468 - 0.451ms returns FALSE
T4750 491:112.003 JLINK_IsHalted()
T4750 491:112.496 - 0.504ms returns FALSE
T4750 491:114.049 JLINK_IsHalted()
T4750 491:114.564 - 0.525ms returns FALSE
T4750 491:115.985 JLINK_IsHalted()
T4750 491:116.453 - 0.478ms returns FALSE
T4750 491:117.992 JLINK_IsHalted()
T4750 491:118.384 - 0.402ms returns FALSE
T4750 491:119.961 JLINK_IsHalted()
T4750 491:120.371 - 0.419ms returns FALSE
T4750 491:121.996 JLINK_IsHalted()
T4750 491:122.393 - 0.406ms returns FALSE
T4750 491:123.999 JLINK_IsHalted()
T4750 491:124.412 - 0.423ms returns FALSE
T4750 491:125.994 JLINK_IsHalted()
T4750 491:126.394 - 0.410ms returns FALSE
T4750 491:127.941 JLINK_IsHalted()
T4750 491:128.383 - 0.452ms returns FALSE
T4750 491:129.951 JLINK_IsHalted()
T4750 491:130.530 - 0.589ms returns FALSE
T4750 491:131.935 JLINK_IsHalted()
T4750 491:132.339 - 0.415ms returns FALSE
T4750 491:133.933 JLINK_IsHalted()
T4750 491:134.323 - 0.401ms returns FALSE
T4750 491:136.971 JLINK_IsHalted()
T4750 491:137.374 - 0.413ms returns FALSE
T4750 491:138.962 JLINK_IsHalted()
T4750 491:139.379 - 0.428ms returns FALSE
T4750 491:140.955 JLINK_IsHalted()
T4750 491:141.364 - 0.419ms returns FALSE
T4750 491:142.949 JLINK_IsHalted()
T4750 491:143.403 - 0.463ms returns FALSE
T4750 491:144.921 JLINK_IsHalted()
T4750 491:145.383 - 0.472ms returns FALSE
T4750 491:146.968 JLINK_IsHalted()
T4750 491:147.474 - 0.516ms returns FALSE
T4750 491:148.915 JLINK_IsHalted()
T4750 491:149.379 - 0.474ms returns FALSE
T4750 491:150.901 JLINK_IsHalted()
T4750 491:151.257 - 0.367ms returns FALSE
T4750 491:152.888 JLINK_IsHalted()
T4750 491:153.254 - 0.375ms returns FALSE
T4750 491:154.883 JLINK_IsHalted()
T4750 491:155.367 - 0.494ms returns FALSE
T4750 491:156.918 JLINK_IsHalted()
T4750 491:157.367 - 0.460ms returns FALSE
T4750 491:158.912 JLINK_IsHalted()
T4750 491:159.349 - 0.448ms returns FALSE
T4750 491:160.869 JLINK_IsHalted()
T4750 491:161.319 - 0.461ms returns FALSE
T4750 491:162.878 JLINK_IsHalted()
T4750 491:163.306 - 0.438ms returns FALSE
T4750 491:164.867 JLINK_IsHalted()
T4750 491:165.314 - 0.455ms returns FALSE
T4750 491:167.850 JLINK_IsHalted()
T4750 491:168.213 - 0.373ms returns FALSE
T4750 491:169.881 JLINK_IsHalted()
T4750 491:170.371 - 0.500ms returns FALSE
T4750 491:171.879 JLINK_IsHalted()
T4750 491:172.327 - 0.458ms returns FALSE
T4750 491:173.996 JLINK_IsHalted()
T4750 491:176.717    -- CPU_ReadMem(2 bytes @ 0x20000000)
T4750 491:177.314 - 3.343ms returns TRUE
T4750 491:177.351 JLINK_ReadReg(R15 (PC))
T4750 491:177.364 - 0.018ms returns 0x20000000
T4750 491:177.376 JLINK_ClrBPEx(BPHandle = 0x00000007)
T4750 491:177.387 - 0.015ms returns 0x00
T4750 491:177.398 JLINK_ReadReg(R0)
T4750 491:177.408 - 0.014ms returns 0x00000000
T4750 491:178.032 JLINK_WriteReg(R0, 0x00000001)
T4750 491:178.065 - 0.039ms returns 0x00
T4750 491:178.078 JLINK_WriteReg(R1, 0x00020000)
T4750 491:178.088 - 0.015ms returns 0x00
T4750 491:178.101 JLINK_WriteReg(R2, 0x000000FF)
T4750 491:178.111 - 0.016ms returns 0x00
T4750 491:178.125 JLINK_WriteReg(R3, 0x00000000)
T4750 491:178.137 - 0.018ms returns 0x00
T4750 491:178.152 JLINK_WriteReg(R4, 0x00000000)
T4750 491:178.165 - 0.019ms returns 0x00
T4750 491:178.179 JLINK_WriteReg(R5, 0x00000000)
T4750 491:178.191 - 0.017ms returns 0x00
T4750 491:178.204 JLINK_WriteReg(R6, 0x00000000)
T4750 491:178.215 - 0.016ms returns 0x00
T4750 491:178.228 JLINK_WriteReg(R7, 0x00000000)
T4750 491:178.241 - 0.018ms returns 0x00
T4750 491:178.253 JLINK_WriteReg(R8, 0x00000000)
T4750 491:178.266 - 0.018ms returns 0x00
T4750 491:178.281 JLINK_WriteReg(R9, 0x2000017C)
T4750 491:178.292 - 0.017ms returns 0x00
T4750 491:178.306 JLINK_WriteReg(R10, 0x00000000)
T4750 491:178.318 - 0.019ms returns 0x00
T4750 491:178.335 JLINK_WriteReg(R11, 0x00000000)
T4750 491:178.347 - 0.019ms returns 0x00
T4750 491:178.361 JLINK_WriteReg(R12, 0x00000000)
T4750 491:178.371 - 0.014ms returns 0x00
T4750 491:178.381 JLINK_WriteReg(R13 (SP), 0x20001000)
T4750 491:178.392 - 0.014ms returns 0x00
T4750 491:178.402 JLINK_WriteReg(R14, 0x20000001)
T4750 491:178.412 - 0.013ms returns 0x00
T4750 491:178.422 JLINK_WriteReg(R15 (PC), 0x20000082)
T4750 491:178.432 - 0.014ms returns 0x00
T4750 491:178.442 JLINK_WriteReg(XPSR, 0x01000000)
T4750 491:178.452 - 0.014ms returns 0x00
T4750 491:178.463 JLINK_WriteReg(MSP, 0x20001000)
T4750 491:178.472 - 0.013ms returns 0x00
T4750 491:178.482 JLINK_WriteReg(PSP, 0x20001000)
T4750 491:178.492 - 0.013ms returns 0x00
T4750 491:178.502 JLINK_WriteReg(CFBP, 0x00000000)
T4750 491:178.512 - 0.014ms returns 0x00
T4750 491:178.524   JLINK_SetBPEx(Addr = 0x20000000, Type = 0xFFFFFFF2)
T4750 491:178.539 - 0.020ms returns 0x00000008
T4750 491:178.550 JLINK_Go()
T4750 491:178.569    -- CPU_ReadMem(4 bytes @ 0xE0001000)
T4750 491:181.533 - 3.015ms
T4750 491:181.576 JLINK_IsHalted()
T4750 491:184.056    -- CPU_ReadMem(2 bytes @ 0x20000000)
T4750 491:184.423 - 2.856ms returns TRUE
T4750 491:184.441 JLINK_ReadReg(R15 (PC))
T4750 491:184.453 - 0.016ms returns 0x20000000
T4750 491:184.465 JLINK_ClrBPEx(BPHandle = 0x00000008)
T4750 491:184.475 - 0.014ms returns 0x00
T4750 491:184.486 JLINK_ReadReg(R0)
T4750 491:184.496 - 0.014ms returns 0x00000000
T4750 491:243.978 JLINK_WriteMem(0x20000000, 0x0180 Bytes, ...)
T4750 491:243.998   Data:  00 BE 0A E0 0D 78 2D 06 68 40 08 24 40 00 00 D3 ...
T4750 491:244.025    -- CPU_WriteMem(384 bytes @ 0x20000000)
T4750 491:246.326 - 2.396ms returns 0x180
T4750 491:246.440 JLINK_WriteReg(R0, 0x08000000)
T4750 491:246.461 - 0.026ms returns 0x00
T4750 491:246.472 JLINK_WriteReg(R1, 0x0ABA9500)
T4750 491:246.483 - 0.014ms returns 0x00
T4750 491:246.494 JLINK_WriteReg(R2, 0x00000002)
T4750 491:246.503 - 0.014ms returns 0x00
T4750 491:246.514 JLINK_WriteReg(R3, 0x00000000)
T4750 491:246.524 - 0.014ms returns 0x00
T4750 491:246.535 JLINK_WriteReg(R4, 0x00000000)
T4750 491:246.546 - 0.015ms returns 0x00
T4750 491:246.558 JLINK_WriteReg(R5, 0x00000000)
T4750 491:246.568 - 0.014ms returns 0x00
T4750 491:246.579 JLINK_WriteReg(R6, 0x00000000)
T4750 491:246.589 - 0.014ms returns 0x00
T4750 491:246.600 JLINK_WriteReg(R7, 0x00000000)
T4750 491:246.609 - 0.014ms returns 0x00
T4750 491:246.620 JLINK_WriteReg(R8, 0x00000000)
T4750 491:246.630 - 0.014ms returns 0x00
T4750 491:246.641 JLINK_WriteReg(R9, 0x2000017C)
T4750 491:246.659 - 0.027ms returns 0x00
T4750 491:246.675 JLINK_WriteReg(R10, 0x00000000)
T4750 491:246.685 - 0.014ms returns 0x00
T4750 491:246.696 JLINK_WriteReg(R11, 0x00000000)
T4750 491:246.705 - 0.014ms returns 0x00
T4750 491:246.716 JLINK_WriteReg(R12, 0x00000000)
T4750 491:246.725 - 0.014ms returns 0x00
T4750 491:246.736 JLINK_WriteReg(R13 (SP), 0x20001000)
T4750 491:246.747 - 0.015ms returns 0x00
T4750 491:246.758 JLINK_WriteReg(R14, 0x20000001)
T4750 491:246.767 - 0.014ms returns 0x00
T4750 491:246.778 JLINK_WriteReg(R15 (PC), 0x20000054)
T4750 491:246.787 - 0.014ms returns 0x00
T4750 491:246.798 JLINK_WriteReg(XPSR, 0x01000000)
T4750 491:246.808 - 0.014ms returns 0x00
T4750 491:246.818 JLINK_WriteReg(MSP, 0x20001000)
T4750 491:246.828 - 0.014ms returns 0x00
T4750 491:246.839 JLINK_WriteReg(PSP, 0x20001000)
T4750 491:246.848 - 0.014ms returns 0x00
T4750 491:246.859 JLINK_WriteReg(CFBP, 0x00000000)
T4750 491:246.868 - 0.014ms returns 0x00
T4750 491:246.880   JLINK_SetBPEx(Addr = 0x20000000, Type = 0xFFFFFFF2)
T4750 491:246.899    -- CPU_ReadMem(2 bytes @ 0x20000000)
T4750 491:247.297 - 0.430ms returns 0x00000009
T4750 491:247.319 JLINK_Go()
T4750 491:247.333    -- CPU_WriteMem(2 bytes @ 0x20000000)
T4750 491:247.725    -- CPU_ReadMem(4 bytes @ 0xE0001000)
T4750 491:250.477 - 3.166ms
T4750 491:250.495 JLINK_IsHalted()
T4750 491:252.776    -- CPU_ReadMem(2 bytes @ 0x20000000)
T4750 491:253.120 - 2.634ms returns TRUE
T4750 491:253.137 JLINK_ReadReg(R15 (PC))
T4750 491:253.148 - 0.016ms returns 0x20000000
T4750 491:253.160 JLINK_ClrBPEx(BPHandle = 0x00000009)
T4750 491:253.170 - 0.014ms returns 0x00
T4750 491:253.181 JLINK_ReadReg(R0)
T4750 491:253.191 - 0.014ms returns 0x00000000
T4750 491:253.469 JLINK_WriteMem(0x20000180, 0x0280 Bytes, ...)
T4750 491:253.483   Data:  30 00 01 20 81 02 00 08 9B 35 00 08 27 2C 00 08 ...
T4750 491:253.502    -- CPU_WriteMem(640 bytes @ 0x20000180)
T4750 491:256.684 - 3.240ms returns 0x280
T4750 491:256.718 JLINK_WriteMem(0x20000400, 0x0180 Bytes, ...)
T4750 491:256.729   Data:  06 48 80 47 06 48 00 47 FE E7 FE E7 FE E7 FE E7 ...
T4750 491:256.747    -- CPU_WriteMem(384 bytes @ 0x20000400)
T4750 491:258.930 - 2.222ms returns 0x180
T4750 491:258.952 JLINK_WriteReg(R0, 0x08000000)
T4750 491:258.964 - 0.016ms returns 0x00
T4750 491:258.975 JLINK_WriteReg(R1, 0x00000400)
T4750 491:258.985 - 0.015ms returns 0x00
T4750 491:258.996 JLINK_WriteReg(R2, 0x20000180)
T4750 491:259.006 - 0.014ms returns 0x00
T4750 491:259.017 JLINK_WriteReg(R3, 0x00000000)
T4750 491:259.027 - 0.014ms returns 0x00
T4750 491:259.038 JLINK_WriteReg(R4, 0x00000000)
T4750 491:259.047 - 0.014ms returns 0x00
T4750 491:259.058 JLINK_WriteReg(R5, 0x00000000)
T4750 491:259.068 - 0.014ms returns 0x00
T4750 491:259.079 JLINK_WriteReg(R6, 0x00000000)
T4750 491:259.088 - 0.014ms returns 0x00
T4750 491:259.099 JLINK_WriteReg(R7, 0x00000000)
T4750 491:259.109 - 0.014ms returns 0x00
T4750 491:259.120 JLINK_WriteReg(R8, 0x00000000)
T4750 491:259.129 - 0.014ms returns 0x00
T4750 491:259.140 JLINK_WriteReg(R9, 0x2000017C)
T4750 491:259.150 - 0.014ms returns 0x00
T4750 491:259.161 JLINK_WriteReg(R10, 0x00000000)
T4750 491:259.170 - 0.014ms returns 0x00
T4750 491:259.181 JLINK_WriteReg(R11, 0x00000000)
T4750 491:259.191 - 0.014ms returns 0x00
T4750 491:259.202 JLINK_WriteReg(R12, 0x00000000)
T4750 491:259.211 - 0.014ms returns 0x00
T4750 491:259.222 JLINK_WriteReg(R13 (SP), 0x20001000)
T4750 491:259.232 - 0.015ms returns 0x00
T4750 491:259.244 JLINK_WriteReg(R14, 0x20000001)
T4750 491:259.253 - 0.014ms returns 0x00
T4750 491:259.264 JLINK_WriteReg(R15 (PC), 0x20000108)
T4750 491:259.274 - 0.014ms returns 0x00
T4750 491:259.284 JLINK_WriteReg(XPSR, 0x01000000)
T4750 491:259.294 - 0.014ms returns 0x00
T4750 491:259.305 JLINK_WriteReg(MSP, 0x20001000)
T4750 491:259.315 - 0.014ms returns 0x00
T4750 491:259.325 JLINK_WriteReg(PSP, 0x20001000)
T4750 491:259.335 - 0.014ms returns 0x00
T4750 491:259.346 JLINK_WriteReg(CFBP, 0x00000000)
T4750 491:259.358 - 0.018ms returns 0x00
T4750 491:259.372   JLINK_SetBPEx(Addr = 0x20000000, Type = 0xFFFFFFF2)
T4750 491:259.386 - 0.019ms returns 0x0000000A
T4750 491:259.397 JLINK_Go()
T4750 491:259.411    -- CPU_ReadMem(4 bytes @ 0xE0001000)
T4750 491:262.429 - 3.049ms
T4750 491:262.457 JLINK_IsHalted()
T4750 491:262.830 - 0.392ms returns FALSE
T4750 491:266.629 JLINK_IsHalted()
T4750 491:269.081    -- CPU_ReadMem(2 bytes @ 0x20000000)
T4750 491:269.557 - 2.949ms returns TRUE
T4750 491:269.589 JLINK_ReadReg(R15 (PC))
T4750 491:269.602 - 0.018ms returns 0x20000000
T4750 491:269.614 JLINK_ClrBPEx(BPHandle = 0x0000000A)
T4750 491:269.624 - 0.015ms returns 0x00
T4750 491:269.636 JLINK_ReadReg(R0)
T4750 491:269.645 - 0.014ms returns 0x00000000
T4750 491:270.103 JLINK_WriteMem(0x20000180, 0x0280 Bytes, ...)
T4750 491:270.119   Data:  90 F1 02 08 B0 F1 02 08 70 B5 8C 18 10 F8 01 5B ...
T4750 491:270.139    -- CPU_WriteMem(640 bytes @ 0x20000180)
T4750 491:273.467 - 3.387ms returns 0x280
T4750 491:273.502 JLINK_WriteMem(0x20000400, 0x0180 Bytes, ...)
T4750 491:273.513   Data:  03 F1 08 00 2A 54 58 7A 42 1C 5A 72 30 30 08 70 ...
T4750 491:273.536    -- CPU_WriteMem(384 bytes @ 0x20000400)
T4750 491:275.790 - 2.297ms returns 0x180
T4750 491:275.812 JLINK_WriteReg(R0, 0x08000400)
T4750 491:275.823 - 0.017ms returns 0x00
T4750 491:275.835 JLINK_WriteReg(R1, 0x00000400)
T4750 491:275.845 - 0.014ms returns 0x00
T4750 491:275.856 JLINK_WriteReg(R2, 0x20000180)
T4750 491:275.866 - 0.014ms returns 0x00
T4750 491:275.877 JLINK_WriteReg(R3, 0x00000000)
T4750 491:275.887 - 0.014ms returns 0x00
T4750 491:275.898 JLINK_WriteReg(R4, 0x00000000)
T4750 491:275.907 - 0.014ms returns 0x00
T4750 491:275.918 JLINK_WriteReg(R5, 0x00000000)
T4750 491:275.928 - 0.014ms returns 0x00
T4750 491:275.939 JLINK_WriteReg(R6, 0x00000000)
T4750 491:275.949 - 0.014ms returns 0x00
T4750 491:275.960 JLINK_WriteReg(R7, 0x00000000)
T4750 491:275.969 - 0.014ms returns 0x00
T4750 491:275.980 JLINK_WriteReg(R8, 0x00000000)
T4750 491:275.990 - 0.014ms returns 0x00
T4750 491:276.001 JLINK_WriteReg(R9, 0x2000017C)
T4750 491:276.010 - 0.014ms returns 0x00
T4750 491:276.021 JLINK_WriteReg(R10, 0x00000000)
T4750 491:276.031 - 0.014ms returns 0x00
T4750 491:276.042 JLINK_WriteReg(R11, 0x00000000)
T4750 491:276.052 - 0.014ms returns 0x00
T4750 491:276.063 JLINK_WriteReg(R12, 0x00000000)
T4750 491:276.072 - 0.014ms returns 0x00
T4750 491:276.083 JLINK_WriteReg(R13 (SP), 0x20001000)
T4750 491:276.094 - 0.015ms returns 0x00
T4750 491:276.105 JLINK_WriteReg(R14, 0x20000001)
T4750 491:276.115 - 0.014ms returns 0x00
T4750 491:276.126 JLINK_WriteReg(R15 (PC), 0x20000108)
T4750 491:276.135 - 0.014ms returns 0x00
T4750 491:276.146 JLINK_WriteReg(XPSR, 0x01000000)
T4750 491:276.156 - 0.014ms returns 0x00
T4750 491:276.167 JLINK_WriteReg(MSP, 0x20001000)
T4750 491:276.177 - 0.014ms returns 0x00
T4750 491:276.188 JLINK_WriteReg(PSP, 0x20001000)
T4750 491:276.197 - 0.014ms returns 0x00
T4750 491:276.208 JLINK_WriteReg(CFBP, 0x00000000)
T4750 491:276.218 - 0.014ms returns 0x00
T4750 491:276.230   JLINK_SetBPEx(Addr = 0x20000000, Type = 0xFFFFFFF2)
T4750 491:276.244 - 0.019ms returns 0x0000000B
T4750 491:276.256 JLINK_Go()
T4750 491:276.271    -- CPU_ReadMem(4 bytes @ 0xE0001000)
T4750 491:279.145 - 2.908ms
T4750 491:279.175 JLINK_IsHalted()
T4750 491:279.612 - 0.482ms returns FALSE
T4750 491:282.763 JLINK_IsHalted()
T4750 491:283.147 - 0.394ms returns FALSE
T4750 491:284.797 JLINK_IsHalted()
T4750 491:287.280    -- CPU_ReadMem(2 bytes @ 0x20000000)
T4750 491:287.691 - 2.904ms returns TRUE
T4750 491:287.711 JLINK_ReadReg(R15 (PC))
T4750 491:287.723 - 0.017ms returns 0x20000000
T4750 491:287.735 JLINK_ClrBPEx(BPHandle = 0x0000000B)
T4750 491:287.745 - 0.015ms returns 0x00
T4750 491:287.756 JLINK_ReadReg(R0)
T4750 491:287.766 - 0.014ms returns 0x00000000
T4750 491:288.185 JLINK_WriteMem(0x20000180, 0x0280 Bytes, ...)
T4750 491:288.200   Data:  00 28 01 DA 00 20 FE BD 9D F8 02 00 22 46 00 F0 ...
T4750 491:288.219    -- CPU_WriteMem(640 bytes @ 0x20000180)
T4750 491:291.620 - 3.445ms returns 0x280
T4750 491:291.642 JLINK_WriteMem(0x20000400, 0x0180 Bytes, ...)
T4750 491:291.653   Data:  9D F8 10 00 31 28 0F D1 01 20 0C E0 9D F8 0F 00 ...
T4750 491:291.670    -- CPU_WriteMem(384 bytes @ 0x20000400)
T4750 491:293.843 - 2.215ms returns 0x180
T4750 491:293.889 JLINK_WriteReg(R0, 0x08000800)
T4750 491:293.901 - 0.016ms returns 0x00
T4750 491:293.912 JLINK_WriteReg(R1, 0x00000400)
T4750 491:293.922 - 0.014ms returns 0x00
T4750 491:293.934 JLINK_WriteReg(R2, 0x20000180)
T4750 491:293.943 - 0.014ms returns 0x00
T4750 491:293.954 JLINK_WriteReg(R3, 0x00000000)
T4750 491:293.963 - 0.014ms returns 0x00
T4750 491:293.974 JLINK_WriteReg(R4, 0x00000000)
T4750 491:293.984 - 0.014ms returns 0x00
T4750 491:293.996 JLINK_WriteReg(R5, 0x00000000)
T4750 491:294.005 - 0.014ms returns 0x00
T4750 491:294.016 JLINK_WriteReg(R6, 0x00000000)
T4750 491:294.025 - 0.014ms returns 0x00
T4750 491:294.037 JLINK_WriteReg(R7, 0x00000000)
T4750 491:294.047 - 0.014ms returns 0x00
T4750 491:294.059 JLINK_WriteReg(R8, 0x00000000)
T4750 491:294.068 - 0.014ms returns 0x00
T4750 491:294.079 JLINK_WriteReg(R9, 0x2000017C)
T4750 491:294.089 - 0.014ms returns 0x00
T4750 491:294.099 JLINK_WriteReg(R10, 0x00000000)
T4750 491:294.109 - 0.014ms returns 0x00
T4750 491:294.121 JLINK_WriteReg(R11, 0x00000000)
T4750 491:294.130 - 0.014ms returns 0x00
T4750 491:294.141 JLINK_WriteReg(R12, 0x00000000)
T4750 491:294.151 - 0.014ms returns 0x00
T4750 491:294.162 JLINK_WriteReg(R13 (SP), 0x20001000)
T4750 491:294.171 - 0.014ms returns 0x00
T4750 491:294.183 JLINK_WriteReg(R14, 0x20000001)
T4750 491:294.193 - 0.014ms returns 0x00
T4750 491:294.205 JLINK_WriteReg(R15 (PC), 0x20000108)
T4750 491:294.214 - 0.014ms returns 0x00
T4750 491:294.225 JLINK_WriteReg(XPSR, 0x01000000)
T4750 491:294.235 - 0.014ms returns 0x00
